Circuit: * Schematics Netlist *

Direct Newton iteration for .op point succeeded.
Semiconductor Device Operating Points:
                        --- Bipolar Transistors ---
Name:      q_q1
Model:    2n2222
Ib:       2.48e-05
Ic:       5.18e-03
Vbe:      6.98e-01
Vbc:     -6.10e+00
Vce:      6.80e+00
BetaDC:   2.09e+02
Gm:       1.98e-01
Rpi:      1.04e+03
Rx:       1.00e+01
Ro:       2.04e+04
Cbe:      1.19e-10
Cbc:      3.86e-12
Cjs:      0.00e+00
BetaAC:   2.05e+02
Cbx:      0.00e+00
Ft:       2.55e+08



Date: Thu Apr 01 12:09:58 2021
Total elapsed time: 0.062 seconds.

tnom = 27
temp = 27
method = trap
totiter = 4
traniter = 0
tranpoints = 0
accept = 0
rejected = 0
matrix size = 14
fillins = 1
solver = Normal
Matrix Compiler1: 724 bytes object code size
Matrix Compiler2: 1.04 KB object code size
