
**** 05/22/21 20:28:35 *********** Evaluation PSpice (Nov 1999) **************

 * C:\Users\anjan\Desktop\Semester 4\Principles Of communication\PSPice\AM1.sch


 ****     CIRCUIT DESCRIPTION


******************************************************************************




* Schematics Version 9.1 - Web Update 1
* Sat May 22 20:28:35 2021



** Analysis setup **
.tran 0ns 1ms
.OP 


* From [PSPICE NETLIST] section of pspiceev.ini:
.lib "nom.lib"

.INC "AM1.net"

**** INCLUDING AM1.net ****
* Schematics Netlist *



R_Rm         IN OUT  1k  
V_Vo         $N_0001 0 2V
D_D5         $N_0002 OUT D1N4002 
D_D6         $N_0002 0 D1N4002 
D_D7         OUT $N_0003 D1N4002 
D_D8         0 $N_0003 D1N4002 
R_R3         OUT VoutAM  1k  
C_C1         0 VoutAM  2.2n  
L_L1         VoutAM 0  46uH  
V_Vm         IN $N_0001  
+SIN 0 1 5k 0 0 0
R_Rp         $N_0002 $N_0004  1k  
V_Vp         $N_0004 $N_0003  
+SIN 0 10 50k 0 0 0

**** RESUMING AM1.cir ****
.INC "AM1.als"



**** INCLUDING AM1.als ****
* Schematics Aliases *

.ALIASES
R_Rm            Rm(1=IN 2=OUT )
V_Vo            Vo(+=$N_0001 -=0 )
D_D5            D5(1=$N_0002 2=OUT )
D_D6            D6(1=$N_0002 2=0 )
D_D7            D7(1=OUT 2=$N_0003 )
D_D8            D8(1=0 2=$N_0003 )
R_R3            R3(1=OUT 2=VoutAM )
C_C1            C1(1=0 2=VoutAM )
L_L1            L1(1=VoutAM 2=0 )
V_Vm            Vm(+=IN -=$N_0001 )
R_Rp            Rp(1=$N_0002 2=$N_0004 )
V_Vp            Vp(+=$N_0004 -=$N_0003 )
_    _(OUT=OUT)
_    _(IN=IN)
_    _(VoutAM=VoutAM)
.ENDALIASES


**** RESUMING AM1.cir ****
.probe


.END

**** 05/22/21 20:28:35 *********** Evaluation PSpice (Nov 1999) **************

 * C:\Users\anjan\Desktop\Semester 4\Principles Of communication\PSPice\AM1.sch


 ****     Diode MODEL PARAMETERS


******************************************************************************




               D1N4002         
          IS   14.110000E-09 
           N    1.984        
         ISR  100.000000E-12 
         IKF   94.81         
          BV  100.1          
         IBV   10            
          RS     .03389      
          TT    4.761000E-06 
         CJO   51.170000E-12 
          VJ     .3905       
           M     .2762       


**** 05/22/21 20:28:35 *********** Evaluation PSpice (Nov 1999) **************

 * C:\Users\anjan\Desktop\Semester 4\Principles Of communication\PSPice\AM1.sch


 ****     SMALL SIGNAL BIAS SOLUTION       TEMPERATURE =   27.000 DEG C


******************************************************************************



 NODE   VOLTAGE     NODE   VOLTAGE     NODE   VOLTAGE     NODE   VOLTAGE


(   IN)    2.0000  (  OUT)     .9612  (VoutAM)    0.0000 ($N_0001)    2.0000    

($N_0002)     .4418                   ($N_0003)     .5194                       

($N_0004)     .5194                   




    VOLTAGE SOURCE CURRENTS
    NAME         CURRENT

    V_Vo        -1.039E-03
    V_Vm        -1.039E-03
    V_Vp        -7.762E-05

    TOTAL POWER DISSIPATION   2.08E-03  WATTS


**** 05/22/21 20:28:35 *********** Evaluation PSpice (Nov 1999) **************

 * C:\Users\anjan\Desktop\Semester 4\Principles Of communication\PSPice\AM1.sch


 ****     OPERATING POINT INFORMATION      TEMPERATURE =   27.000 DEG C


******************************************************************************






**** DIODES


NAME         D_D5        D_D6        D_D7        D_D8      
MODEL        D1N4002     D1N4002     D1N4002     D1N4002   
ID          -1.42E-08    7.76E-05    7.76E-05   -1.42E-08 
VD          -5.19E-01    4.42E-01    4.42E-01   -5.19E-01 
REQ          6.68E+10    6.60E+02    6.60E+02    6.68E+10 
CAP          4.05E-11    7.29E-09    7.29E-09    4.05E-11 
**** 05/22/21 20:28:35 *********** Evaluation PSpice (Nov 1999) **************

 * C:\Users\anjan\Desktop\Semester 4\Principles Of communication\PSPice\AM1.sch


 ****     INITIAL TRANSIENT SOLUTION       TEMPERATURE =   27.000 DEG C


******************************************************************************



 NODE   VOLTAGE     NODE   VOLTAGE     NODE   VOLTAGE     NODE   VOLTAGE


(   IN)    2.0000  (  OUT)     .9612  (VoutAM)    0.0000 ($N_0001)    2.0000    

($N_0002)     .4418                   ($N_0003)     .5194                       

($N_0004)     .5194                   




    VOLTAGE SOURCE CURRENTS
    NAME         CURRENT

    V_Vo        -1.039E-03
    V_Vm        -1.039E-03
    V_Vp        -7.762E-05

    TOTAL POWER DISSIPATION   2.08E-03  WATTS



          JOB CONCLUDED

          TOTAL JOB TIME             .17
