
**** 05/22/21 23:00:11 *********** Evaluation PSpice (Nov 1999) **************

 * C:\Users\anjan\Desktop\Semester 4\Principles Of communication\PSPice\PWM.sch


 ****     CIRCUIT DESCRIPTION


******************************************************************************




* Schematics Version 9.1 - Web Update 1
* Sat May 22 23:00:11 2021



** Analysis setup **
.tran 0ns 20ms
.OP 


* From [PSPICE NETLIST] section of pspiceev.ini:
.lib "nom.lib"

.INC "PWM.net"

**** INCLUDING PWM.net ****
* Schematics Netlist *



C_C2         0 Vcc  0.1uF  
C_C1         0 $N_0001  0.1uF  
R_R1         $N_0001 Vcc  4.3k  
C_C4         0 Vcc  10uF  
V_V2         Vcc 0 7V
X_X1         0 $N_0002 **OUT** Vcc $N_0003 $N_0001 $N_0001 Vcc 555D PARAMS:
+  MAXFREQ=3E6
R_RL         **OUT** 0  1k  
V_**message**         $N_0003 0  AC 0
+SIN 3 3 50 0 0 0
V_clock         $N_0002 0  
+PULSE 7 0 0 0.1u 0.1u 0.1m 1m

**** RESUMING PWM.cir ****
.INC "PWM.als"



**** INCLUDING PWM.als ****
* Schematics Aliases *

.ALIASES
C_C2            C2(1=0 2=Vcc )
C_C1            C1(1=0 2=$N_0001 )
R_R1            R1(1=$N_0001 2=Vcc )
C_C4            C4(1=0 2=Vcc )
V_V2            V2(+=Vcc -=0 )
X_X1            X1(GND=0 TRIGGER=$N_0002 OUTPUT=**OUT** RESET=Vcc
+  CONTROL=$N_0003 THRESHOLD=$N_0001 DISCHARGE=$N_0001 VCC=Vcc )
R_RL            RL(1=**OUT** 2=0 )
V_**message**          **message**(+=$N_0003 -=0 )
V_clock          clock(+=$N_0002 -=0 )
_    _(Vcc=Vcc)
_    _(**OUT**=**OUT**)
.ENDALIASES


**** RESUMING PWM.cir ****
.probe


.END


**** Generated AtoD and DtoA Interfaces ****

*
* Analog/Digital interface for node Vcc
*
* Moving X_X1.u1:CLRBAR from analog node Vcc to new digital node Vcc$AtoD
X$Vcc_AtoD1
+ Vcc
+ Vcc$AtoD
+ Vcc
+ 0
+ atod_555
+       PARAMS: CAPACITANCE=   0     
*
* Analog/Digital interface for node **OUT**
*
* Moving X_X1.u1:Q1 from analog node **OUT** to new digital node **OUT**$DtoA
X$**OUT**_DtoA1
+ **OUT**$DtoA
+ **OUT**
+ Vcc
+ 0
+ dtoa_555
+       PARAMS: DRVH=  96.4   DRVL= 104    CAPACITANCE=   0     
*
* Analog/Digital interface for node X_X1.qb
*
* Moving X_X1.u1:QBAR1 from analog node X_X1.qb to new digital node X_X1.qb$DtoA
X$X_X1.qb_DtoA1
+ X_X1.qb$DtoA
+ X_X1.qb
+ Vcc
+ 0
+ dtoa_555
+       PARAMS: DRVH=  96.4   DRVL= 104    CAPACITANCE=   0     
*
* Analog/Digital interface power supply subcircuits
*

X$DIGIFPWR 0 DIGIFPWR

**** 05/22/21 23:00:11 *********** Evaluation PSpice (Nov 1999) **************

 * C:\Users\anjan\Desktop\Semester 4\Principles Of communication\PSPice\PWM.sch


 ****     MOSFET MODEL PARAMETERS


******************************************************************************




               X_X1.nchan      
               NMOS            
       LEVEL    1            
           L  100.000000E-06 
           W  100.000000E-06 
         VTO    0            
          KP   20.000000E-06 
       GAMMA    0            
         PHI     .6          
      LAMBDA    0            
          IS   10.000000E-15 
          JS    0            
          PB     .8          
        PBSW     .8          
          CJ    0            
        CJSW    0            
        CGSO    1.000000E-12 
        CGDO    1.000000E-12 
        CGBO    1.000000E-12 
         TOX    0            
          XJ    0            
       UCRIT   10.000000E+03 
      DIOMOD    1            
         VFB    0            
        LETA    0            
        WETA    0            
          U0    0            
        TEMP    0            
         VDD    0            
       XPART    0            


**** 05/22/21 23:00:11 *********** Evaluation PSpice (Nov 1999) **************

 * C:\Users\anjan\Desktop\Semester 4\Principles Of communication\PSPice\PWM.sch


 ****     Digital Input MODEL PARAMETERS


******************************************************************************




               din555          
        FILE DSO_DTOA        
      FORMAT    6            
    TIMESTEP  100.000000E-12 
      S0NAME 0               
       S0TSW  700.000000E-12 
       S0RLO  100            
       S0RHI    1.000000E+06 
      S1NAME 1               
       S1TSW  700.000000E-12 
       S1RLO    1.000000E+06 
       S1RHI  300            
      S2NAME x               
       S2TSW  700.000000E-12 
       S2RLO  200            
       S2RHI  200            
      S3NAME r               
       S3TSW  700.000000E-12 
       S3RLO  200            
       S3RHI  200            
      S4NAME f               
       S4TSW  700.000000E-12 
       S4RLO  200            
       S4RHI  200            
      S5NAME z               
       S5TSW  700.000000E-12 
       S5RLO  200.000000E+03 
       S5RHI  200.000000E+03 


**** 05/22/21 23:00:11 *********** Evaluation PSpice (Nov 1999) **************

 * C:\Users\anjan\Desktop\Semester 4\Principles Of communication\PSPice\PWM.sch


 ****     Digital Output MODEL PARAMETERS


******************************************************************************




               X_X1.cmp        do555           
        FILE DSO_ATOD        DSO_ATOD        
      FORMAT    6               6            
     CHGONLY    1               1            
    TIMESTEP  100.000000E-12  100.000000E-12 
      S0NAME 0               X               
       S0VHI                    2            
       S0VLO -500                .8          
      S1NAME 1               0               
       S1VHI  500                .8          
       S1VLO                   -1.5          
      S2NAME                 R               
       S2VHI                    1.4          
       S2VLO                     .8          
      S3NAME                 R               
       S3VHI                    2            
       S3VLO                    1.3          
      S4NAME                 X               
       S4VHI                    2            
       S4VLO                     .8          
      S5NAME                 1               
       S5VHI                   50            
       S5VLO                    2            
      S6NAME                 F               
       S6VHI                    2            
       S6VLO                    1.3          
      S7NAME                 F               
       S7VHI                    1.4          
       S7VLO                     .8          


**** 05/22/21 23:00:11 *********** Evaluation PSpice (Nov 1999) **************

 * C:\Users\anjan\Desktop\Semester 4\Principles Of communication\PSPice\PWM.sch


 ****     Digital Gated FF MODEL PARAMETERS


******************************************************************************




               X_X1.t_srff     
    TPDQLHMN    0            
    TPDQLHTY    0            
    TPDQLHMX    0            
    TPDQHLMN    0            
    TPDQHLTY    0            
    TPDQHLMX    0            
    TPGQLHMN    0            
    TPGQLHTY    0            
    TPGQLHMX    0            
    TPGQHLMN    0            
    TPGQHLTY    0            
    TPGQHLMX    0            
   TPPCQLHMN   48.000000E-09 
   TPPCQLHTY  120.000000E-09 
   TPPCQLHMX  192.000000E-09 
   TPPCQHLMN    0            
   TPPCQHLTY    0            
   TPPCQHLMX    0            
      TWGHMN    0            
      TWGHTY    0            
      TWGHMX    0            
     TWPCLMN    0            
     TWPCLTY    0            
     TWPCLMX    0            
     TSUDGMN    0            
     TSUDGTY    0            
     TSUDGMX    0            
   TSUPCGHMN    0            
   TSUPCGHTY    0            
   TSUPCGHMX    0            
      THDGMN    0            
      THDGTY    0            
      THDGMX    0            


**** 05/22/21 23:00:11 *********** Evaluation PSpice (Nov 1999) **************

 * C:\Users\anjan\Desktop\Semester 4\Principles Of communication\PSPice\PWM.sch


 ****     Digital Delay Line MODEL PARAMETERS


******************************************************************************




               X_X1.dlymod     
       DLYMN  166.666700E-09 
       DLYTY  166.666700E-09 
       DLYMX  166.666700E-09 


**** 05/22/21 23:00:11 *********** Evaluation PSpice (Nov 1999) **************

 * C:\Users\anjan\Desktop\Semester 4\Principles Of communication\PSPice\PWM.sch


 ****     Digital IO  MODEL PARAMETERS


******************************************************************************




               X_X1.io_555     io_std          io_stm          
        DRVL  104             104               0            
        DRVH   96.4            96.4             0            
       AtoD1 atod_555        AtoD_STD                        
       AtoD2 atod_555        AtoD_STD_NX                     
       AtoD3 atod_555        AtoD_STD                        
       AtoD4 atod_555        AtoD_STD_NX                     
       DtoA1 dtoa_555        DtoA_STD        DtoA_STM        
       DtoA2 dtoa_555        DtoA_STD        DtoA_STM        
       DtoA3 dtoa_555        DtoA_STD        DtoA_STM        
       DtoA4 dtoa_555        DtoA_STD        DtoA_STM        
      TSWHL1                    1.373000E-09                 
      TSWHL2                    1.346000E-09                 
      TSWHL3                    1.511000E-09                 
      TSWHL4                    1.487000E-09                 
      TSWLH1                    3.382000E-09                 
      TSWLH2                    3.424000E-09                 
      TSWLH3                    3.517000E-09                 
      TSWLH4                    3.564000E-09                 
       TPWRT  100.000000E+03  100.000000E+03  100.000000E+03 


**** 05/22/21 23:00:11 *********** Evaluation PSpice (Nov 1999) **************

 * C:\Users\anjan\Desktop\Semester 4\Principles Of communication\PSPice\PWM.sch


 ****     SMALL SIGNAL BIAS SOLUTION       TEMPERATURE =   27.000 DEG C


******************************************************************************



 NODE   VOLTAGE     NODE   VOLTAGE     NODE   VOLTAGE     NODE   VOLTAGE


(  Vcc)    7.0000  ($G_DGND)    0.0000                   ($G_DPWR)    5.0000    

($N_0001)    7.0000                   ($N_0002)    7.0000                       

($N_0003)    3.0000                   (**OUT**)    5.3834                       

(X_X1.qb) 699.9E-06                   (X_X1.botm)    1.5000                 



 DGTL NODE : STATE  DGTL NODE : STATE  DGTL NODE : STATE  DGTL NODE : STATE


(  X_X1.r) : 1     ( X_X1.sd) : 0     ( X_X1.rd) : 1     (X_X1.strt) : 0        

(  X_X1.s) : 0     ( X_X1.hi) : 1     (Vcc$AtoD) : 1     (X_X1.qb$DtoA) : 0     

(**OUT**$DtoA) : 1                    




    VOLTAGE SOURCE CURRENTS
    NAME         CURRENT

    V_V2        -5.703E-03
    V_**message**   1.923E-04
    V_clock     -5.500E-12
    X$DIGIFPWR.VDPWR  -5.000E-06
    X$DIGIFPWR.VDGND  -5.000E-06

    TOTAL POWER DISSIPATION   3.94E-02  WATTS


**** 05/22/21 23:00:11 *********** Evaluation PSpice (Nov 1999) **************

 * C:\Users\anjan\Desktop\Semester 4\Principles Of communication\PSPice\PWM.sch


 ****     OPERATING POINT INFORMATION      TEMPERATURE =   27.000 DEG C


******************************************************************************






**** MOSFETS


NAME         X_X1.m1   
MODEL        X_X1.nchan
ID           2.46E-09 
VGS          7.00E-04 
VDS          7.00E+00 
VBS          0.00E+00 
VTH          0.00E+00 
VDSAT        7.00E-04 
Lin0/Sat1   -1.00E+00 
if          -1.00E+00 
ir          -1.00E+00 
TAU         -1.00E+00 
GM           7.00E-06 
GDS          0.00E+00 
GMB          0.00E+00 
CBD          0.00E+00 
CBS          0.00E+00 
CGSOV        1.00E-15 
CGDOV        1.00E-15 
CGBOV        2.00E-18 
CGS          0.00E+00 
CGD          0.00E+00 
CGB          0.00E+00 
**** 05/22/21 23:00:11 *********** Evaluation PSpice (Nov 1999) **************

 * C:\Users\anjan\Desktop\Semester 4\Principles Of communication\PSPice\PWM.sch


 ****     INITIAL TRANSIENT SOLUTION       TEMPERATURE =   27.000 DEG C


******************************************************************************



 NODE   VOLTAGE     NODE   VOLTAGE     NODE   VOLTAGE     NODE   VOLTAGE


(  Vcc)    7.0000  ($G_DGND)    0.0000                   ($G_DPWR)    5.0000    

($N_0001)    7.0000                   ($N_0002)    7.0000                       

($N_0003)    3.0000                   (**OUT**)    5.3834                       

(X_X1.qb) 699.9E-06                   (X_X1.botm)    1.5000                 



 DGTL NODE : STATE  DGTL NODE : STATE  DGTL NODE : STATE  DGTL NODE : STATE


(  X_X1.r) : 1     ( X_X1.sd) : 0     ( X_X1.rd) : 1     (X_X1.strt) : 0        

(  X_X1.s) : 0     ( X_X1.hi) : 1     (Vcc$AtoD) : 1     (X_X1.qb$DtoA) : 0     

(**OUT**$DtoA) : 1                    




    VOLTAGE SOURCE CURRENTS
    NAME         CURRENT

    V_V2        -5.703E-03
    V_**message**   1.923E-04
    V_clock     -5.500E-12
    X$DIGIFPWR.VDPWR  -5.000E-06
    X$DIGIFPWR.VDGND  -5.000E-06

    TOTAL POWER DISSIPATION   3.94E-02  WATTS



          JOB CONCLUDED

          TOTAL JOB TIME             .58
